T2410 021:032.212   SEGGER J-Link V8.62 Log File
T2410 021:032.256   DLL Compiled: Aug 20 2025 11:43:57
T2410 021:032.260   Logging started @ 2025-09-25 01:09
T2410 021:032.264   Process: D:\Program Files\keilv5\UV4\UV4.exe
T2410 021:032.268 - 6577.635ms 
T2410 021:032.276 JLINK_SetWarnOutHandler(...)
T2410 021:032.282 - 0.004ms 
T2410 021:032.288 JLINK_OpenEx(...)
T2410 021:034.760   Firmware: J-Link Pro V4 V11 PLUS Feb compiled 20 2025 16:24:17 
T2410 021:035.684   Firmware: J-Link Pro V4 V11 PLUS Feb compiled 20 2025 16:24:17 
T2410 021:035.794   Decompressing FW timestamp took 85 us
T2410 021:037.630   Hardware: V11.00
T2410 021:037.640   S/N: 601024530
T2410 021:037.644   OEM: SEGGER
T2410 021:037.652   Feature(s): FlashBP, GDB, JFlash, FlashDL, RDI
T2410 021:038.380   Bootloader: (FW returned invalid version)
T2410 021:038.880   USB speed mode: High speed (480 MBit/s)
T2410 021:039.192   TELNET listener socket opened on port 19021
T2410 021:042.948   WEBSRV WEBSRV_Init(): Starting webserver thread(s)
T2410 021:043.012   WEBSRV Webserver running on local port 19080
T2410 021:043.080   Looking for J-Link GUI Server exe at: C:\Keil_v5\ARM\Segger\JLinkGUIServer.exe
T2410 021:043.114   Looking for J-Link GUI Server exe at: C:\Program Files (x86)\SEGGER\JLink\\JLinkGUIServer.exe
T2410 021:043.132   Forking J-Link GUI Server: C:\Program Files (x86)\SEGGER\JLink\\JLinkGUIServer.exe
T2410 021:056.916   J-Link GUI Server info: "J-Link GUI server V6.70 "
T2410 021:057.012   J-Link GUI Server: Connection breakdown.
T2410 021:057.044 - 24.756ms returns "O.K."
T2410 021:057.062 JLINK_GetEmuCaps()
T2410 021:057.068 - 0.004ms returns 0xB9FF7BBF
T2410 021:057.074 JLINK_TIF_GetAvailable(...)
T2410 021:057.306 - 0.232ms 
T2410 021:057.316 JLINK_SetErrorOutHandler(...)
T2410 021:057.318 - 0.003ms 
T2410 021:057.330 JLINK_ExecCommand("ProjectFile = "C:\Users\dell\Desktop\stm32_wb55\My_Test_day02_Ble\My_Test\IIC\HSE_LSE_SYS32Mhz_IIC3\MDK-ARM\JLinkSettings.ini"", ...). 
T2410 021:059.220 - 1.891ms returns 0x00
T2410 021:061.004 JLINK_ExecCommand("Device = STM32WB55RGVx", ...). 
T2410 021:061.202   Flash bank @ 0x08000000: SFL: Parsing sectorization info from ELF file
T2410 021:061.212     FlashDevice.SectorInfo[0]: .SectorSize = 0x00001000, .SectorStartAddr = 0x00000000
T2410 021:061.216   FlashBank @0x08000000: Sectorization info from SFL ELF file ignored because sectorization override from DLL / XML file is active.
T2410 021:061.486   Flash bank @ 0x08000000: SFL: Parsing sectorization info from ELF file
T2410 021:061.494     FlashDevice.SectorInfo[0]: .SectorSize = 0x00001000, .SectorStartAddr = 0x00000000
T2410 021:061.500   FlashBank @0x1FFF8000: Sectorization info from SFL ELF file ignored because sectorization override from DLL / XML file is active.
T2410 021:062.764   Device "STM32WB55RG" selected.
T2410 021:062.980 - 1.960ms returns 0x00
T2410 021:062.988 JLINK_ExecCommand("DisableConnectionTimeout", ...). 
T2410 021:062.996   ERROR: Unknown command
T2410 021:063.002 - 0.007ms returns 0x01
T2410 021:063.010 JLINK_GetHardwareVersion()
T2410 021:063.014 - 0.004ms returns 110000
T2410 021:063.020 JLINK_GetDLLVersion()
T2410 021:063.024 - 0.003ms returns 86200
T2410 021:063.028 JLINK_GetOEMString(...)
T2410 021:063.034 JLINK_GetFirmwareString(...)
T2410 021:063.038 - 0.003ms 
T2410 021:066.516 JLINK_GetDLLVersion()
T2410 021:066.530 - 0.013ms returns 86200
T2410 021:066.538 JLINK_GetCompileDateTime()
T2410 021:066.542 - 0.004ms 
T2410 021:067.912 JLINK_GetFirmwareString(...)
T2410 021:067.924 - 0.012ms 
T2410 021:068.960 JLINK_GetHardwareVersion()
T2410 021:068.972 - 0.011ms returns 110000
T2410 021:069.956 JLINK_GetSN()
T2410 021:069.966 - 0.011ms returns 601024530
T2410 021:070.972 JLINK_GetOEMString(...)
T2410 021:072.998 JLINK_TIF_Select(JLINKARM_TIF_SWD)
T2410 021:073.760 - 0.761ms returns 0x00
T2410 021:073.768 JLINK_HasError()
T2410 021:073.776 JLINK_SetSpeed(5000)
T2410 021:073.894 - 0.119ms 
T2410 021:073.902 JLINK_GetId()
T2410 021:075.166   InitTarget() start
T2410 021:075.180    J-Link Script File: Executing InitTarget()
T2410 021:076.500   SWD selected. Executing JTAG -> SWD switching sequence.
T2410 021:078.940   DAP initialized successfully.
T2410 021:089.596   InitTarget() end - Took 13.3ms
T2410 021:091.020   Found SW-DP with ID 0x6BA02477
T2410 021:093.534   DPIDR: 0x6BA02477
T2410 021:094.580   CoreSight SoC-400 or earlier
T2410 021:095.568   Scanning AP map to find all available APs
T2410 021:097.488   AP[2]: Stopped AP scan as end of AP map has been reached
T2410 021:098.564   AP[0]: AHB-AP (IDR: 0x24770011, ADDR: 0x00000000)
T2410 021:099.572   AP[1]: AHB-AP (IDR: 0x84770001, ADDR: 0x01000000)
T2410 021:100.550   Iterating through AP map to find AHB-AP to use
T2410 021:102.004   AP[0]: Core found
T2410 021:103.078   AP[0]: AHB-AP ROM base: 0xE00FF000
T2410 021:104.380   CPUID register: 0x410FC241. Implementer code: 0x41 (ARM)
T2410 021:105.340   Found Cortex-M4 r0p1, Little endian.
T2410 021:105.632   -- Max. mem block: 0x00005C40
T2410 021:106.028   CPU_ReadMem(4 bytes @ 0xE000EDF0)
T2410 021:106.340   CPU_ReadMem(4 bytes @ 0xE0002000)
T2410 021:107.574   FPUnit: 6 code (BP) slots and 2 literal slots
T2410 021:107.588   CPU_ReadMem(4 bytes @ 0xE000EDFC)
T2410 021:107.800   CPU_WriteMem(4 bytes @ 0xE000EDFC)
T2410 021:107.980   CPU_ReadMem(4 bytes @ 0xE0001000)
T2410 021:108.214   CPU_WriteMem(4 bytes @ 0xE0001000)
T2410 021:108.484   CPU_ReadMem(4 bytes @ 0xE000ED88)
T2410 021:108.716   CPU_WriteMem(4 bytes @ 0xE000ED88)
T2410 021:108.964   CPU_ReadMem(4 bytes @ 0xE000ED88)
T2410 021:109.234   CPU_WriteMem(4 bytes @ 0xE000ED88)
T2410 021:110.444   CoreSight components:
T2410 021:111.524   ROMTbl[0] @ E00FF000
T2410 021:111.540   CPU_ReadMem(64 bytes @ 0xE00FF000)
T2410 021:111.904   CPU_ReadMem(32 bytes @ 0xE000EFE0)
T2410 021:113.182   [0][0]: E000E000 CID B105E00D PID 000BB00C SCS-M7
T2410 021:113.196   CPU_ReadMem(32 bytes @ 0xE0001FE0)
T2410 021:114.836   [0][1]: E0001000 CID B105E00D PID 003BB002 DWT
T2410 021:114.852   CPU_ReadMem(32 bytes @ 0xE0002FE0)
T2410 021:116.124   [0][2]: E0002000 CID B105E00D PID 002BB003 FPB
T2410 021:116.140   CPU_ReadMem(32 bytes @ 0xE0000FE0)
T2410 021:117.408   [0][3]: E0000000 CID B105E00D PID 003BB001 ITM
T2410 021:117.422   CPU_ReadMem(32 bytes @ 0xE0040FE0)
T2410 021:118.820   [0][4]: E0040000 CID B105900D PID 000BB9A1 TPIU
T2410 021:118.836   CPU_ReadMem(32 bytes @ 0xE0041FE0)
T2410 021:120.212   [0][5]: E0041000 CID B105900D PID 000BB925 ETM
T2410 021:120.226   CPU_ReadMem(32 bytes @ 0xE0043FE0)
T2410 021:121.630   [0][6]: E0043000 CID B105900D PID 005BB906 CTI
T2410 021:121.788 - 47.884ms returns 0x6BA02477
T2410 021:121.798 JLINK_GetDLLVersion()
T2410 021:121.804 - 0.003ms returns 86200
T2410 021:121.838 JLINK_CORE_GetFound()
T2410 021:121.844 - 0.004ms returns 0xE0000FF
T2410 021:121.850 JLINK_GetDebugInfo(0x100 = JLINKARM_ROM_TABLE_ADDR_INDEX)
T2410 021:121.852   Value=0xE00FF000
T2410 021:121.860 - 0.010ms returns 0
T2410 021:122.854 JLINK_GetDebugInfo(0x100 = JLINKARM_ROM_TABLE_ADDR_INDEX)
T2410 021:122.864   Value=0xE00FF000
T2410 021:122.870 - 0.017ms returns 0
T2410 021:122.876 JLINK_GetDebugInfo(0x101 = JLINKARM_DEBUG_INFO_ETM_ADDR_INDEX)
T2410 021:122.880   Value=0xE0041000
T2410 021:122.884 - 0.009ms returns 0
T2410 021:122.892 JLINK_ReadMemEx(0xE0041FD0, 0x20 Bytes, Flags = 0x02000004)
T2410 021:122.904   CPU_ReadMem(32 bytes @ 0xE0041FD0)
T2410 021:123.174   Data:  04 00 00 00 00 00 00 00 00 00 00 00 00 00 00 00 ...
T2410 021:123.180 - 0.287ms returns 32 (0x20)
T2410 021:123.186 JLINK_GetDebugInfo(0x102 = JLINKARM_DEBUG_INFO_MTB_ADDR_INDEX)
T2410 021:123.190   Value=0x00000000
T2410 021:123.196 - 0.009ms returns 0
T2410 021:123.200 JLINK_GetDebugInfo(0x103 = JLINKARM_DEBUG_INFO_TPIU_ADDR_INDEX)
T2410 021:123.204   Value=0xE0040000
T2410 021:123.210 - 0.009ms returns 0
T2410 021:123.212 JLINK_GetDebugInfo(0x104 = JLINKARM_DEBUG_INFO_ITM_ADDR_INDEX)
T2410 021:123.218   Value=0xE0000000
T2410 021:123.222 - 0.009ms returns 0
T2410 021:123.228 JLINK_GetDebugInfo(0x105 = JLINKARM_DEBUG_INFO_DWT_ADDR_INDEX)
T2410 021:123.236   Value=0xE0001000
T2410 021:123.242 - 0.015ms returns 0
T2410 021:123.246 JLINK_GetDebugInfo(0x106 = JLINKARM_DEBUG_INFO_FPB_ADDR_INDEX)
T2410 021:123.252   Value=0xE0002000
T2410 021:123.256 - 0.009ms returns 0
T2410 021:123.260 JLINK_GetDebugInfo(0x107 = JLINKARM_DEBUG_INFO_NVIC_ADDR_INDEX)
T2410 021:123.264   Value=0xE000E000
T2410 021:123.268 - 0.009ms returns 0
T2410 021:123.274 JLINK_GetDebugInfo(0x10C = JLINKARM_DEBUG_INFO_DBG_ADDR_INDEX)
T2410 021:123.276   Value=0xE000EDF0
T2410 021:123.284 - 0.009ms returns 0
T2410 021:123.286 JLINK_GetDebugInfo(0x01 = Unknown)
T2410 021:123.292   Value=0x00000001
T2410 021:123.296 - 0.009ms returns 0
T2410 021:123.306 JLINK_ReadMemU32(0xE000ED00, 0x1 Items)
T2410 021:123.312   CPU_ReadMem(4 bytes @ 0xE000ED00)
T2410 021:123.484   Data:  41 C2 0F 41
T2410 021:123.492   Debug reg: CPUID
T2410 021:123.498 - 0.191ms returns 1 (0x1)
T2410 021:123.502 JLINK_GetDebugInfo(0x10F = JLINKARM_DEBUG_INFO_HAS_CORTEX_M_SECURITY_EXT_INDEX)
T2410 021:123.506   Value=0x00000000
T2410 021:123.512 - 0.009ms returns 0
T2410 021:123.516 JLINK_HasError()
T2410 021:123.522 JLINK_SetResetType(JLINKARM_CM3_RESET_TYPE_NORMAL)
T2410 021:123.526 - 0.004ms returns JLINKARM_CM3_RESET_TYPE_NORMAL
T2410 021:123.532 JLINK_Reset()
T2410 021:123.538   JLINK_GetResetTypeDesc
T2410 021:123.540   - 0.004ms 
T2410 021:124.564   Reset type: NORMAL (https://wiki.segger.com/J-Link_Reset_Strategies)
T2410 021:124.576   CPU is running
T2410 021:124.582   CPU_WriteMem(4 bytes @ 0xE000EDF0)
T2410 021:124.762   CPU is running
T2410 021:124.768   CPU_WriteMem(4 bytes @ 0xE000EDFC)
T2410 021:126.044   Reset: Halt core after reset via DEMCR.VC_CORERESET.
T2410 021:127.440   Reset: Reset device via AIRCR.SYSRESETREQ.
T2410 021:127.452   CPU is running
T2410 021:127.460   CPU_WriteMem(4 bytes @ 0xE000ED0C)
T2410 021:181.052   CPU_ReadMem(4 bytes @ 0xE000EDF0)
T2410 021:181.358   CPU_ReadMem(4 bytes @ 0xE000EDF0)
T2410 021:183.492   CPU_WriteMem(4 bytes @ 0xE000EDFC)
T2410 021:189.768   CPU_ReadMem(4 bytes @ 0xE000EDF0)
T2410 021:191.804   CPU_WriteMem(4 bytes @ 0xE0002000)
T2410 021:192.018   CPU_ReadMem(4 bytes @ 0xE000EDFC)
T2410 021:192.246   CPU_ReadMem(4 bytes @ 0xE0001000)
T2410 021:192.498 - 68.965ms 
T2410 021:192.576 JLINK_Halt()
T2410 021:192.588 - 0.011ms returns 0x00
T2410 021:192.604 JLINK_ReadMemU32(0xE000EDF0, 0x1 Items)
T2410 021:192.624   CPU_ReadMem(4 bytes @ 0xE000EDF0)
T2410 021:192.836   Data:  03 00 03 00
T2410 021:192.854   Debug reg: DHCSR
T2410 021:192.872 - 0.268ms returns 1 (0x1)
T2410 021:192.910 JLINK_WriteU32(0xE000EDF0, 0xA05F0003)
T2410 021:192.922   Debug reg: DHCSR
T2410 021:193.446   CPU_WriteMem(4 bytes @ 0xE000EDF0)
T2410 021:193.770 - 0.864ms returns 0 (0x00000000)
T2410 021:193.788 JLINK_WriteU32(0xE000EDFC, 0x01000000)
T2410 021:193.800   Debug reg: DEMCR
T2410 021:193.820   CPU_WriteMem(4 bytes @ 0xE000EDFC)
T2410 021:194.048 - 0.258ms returns 0 (0x00000000)
T2410 021:200.934 JLINK_GetHWStatus(...)
T2410 021:201.308 - 0.374ms returns 0
T2410 021:204.304 JLINK_GetNumBPUnits(Type = 0xFFFFFF00)
T2410 021:204.322 - 0.016ms returns 0x06
T2410 021:204.326 JLINK_GetNumBPUnits(Type = 0xF0)
T2410 021:204.330 - 0.004ms returns 0x2000
T2410 021:204.334 JLINK_GetNumWPUnits()
T2410 021:204.340 - 0.003ms returns 4
T2410 021:207.272 JLINK_GetSpeed()
T2410 021:207.286 - 0.013ms returns 5000
T2410 021:209.132 JLINK_ReadMemU32(0xE000E004, 0x1 Items)
T2410 021:209.152   CPU_ReadMem(4 bytes @ 0xE000E004)
T2410 021:209.364   Data:  02 00 00 00
T2410 021:209.370 - 0.238ms returns 1 (0x1)
T2410 021:209.374 JLINK_ReadMemU32(0xE000E004, 0x1 Items)
T2410 021:209.380   CPU_ReadMem(4 bytes @ 0xE000E004)
T2410 021:209.580   Data:  02 00 00 00
T2410 021:209.586 - 0.210ms returns 1 (0x1)
T2410 021:209.594 JLINK_WriteMemEx(0xE0001000, 0x0000001C Bytes, Flags = 0x02000004)
T2410 021:209.596   Data:  01 00 00 00 00 00 00 00 00 00 00 00 00 00 00 00 ...
T2410 021:209.606   CPU_WriteMem(28 bytes @ 0xE0001000)
T2410 021:209.940 - 0.345ms returns 0x1C
T2410 021:209.972 JLINK_Halt()
T2410 021:209.976 - 0.003ms returns 0x00
T2410 021:209.980 JLINK_IsHalted()
T2410 021:209.984 - 0.004ms returns TRUE
T2410 021:212.062 JLINK_WriteMem(0x20000000, 0x164 Bytes, ...)
T2410 021:212.070   Data:  00 BE 0A E0 0D 78 2D 06 68 40 08 24 40 00 00 D3 ...
T2410 021:212.318   CPU_WriteMem(356 bytes @ 0x20000000)
T2410 021:213.578 - 1.510ms returns 0x164
T2410 021:213.624 JLINK_HasError()
T2410 021:213.632 JLINK_WriteReg(R0, 0x08000000)
T2410 021:213.638 - 0.005ms returns 0
T2410 021:213.642 JLINK_WriteReg(R1, 0x01E84800)
T2410 021:213.646 - 0.003ms returns 0
T2410 021:213.650 JLINK_WriteReg(R2, 0x00000001)
T2410 021:213.654 - 0.003ms returns 0
T2410 021:213.658 JLINK_WriteReg(R3, 0x00000000)
T2410 021:213.662 - 0.003ms returns 0
T2410 021:213.668 JLINK_WriteReg(R4, 0x00000000)
T2410 021:213.670 - 0.003ms returns 0
T2410 021:213.676 JLINK_WriteReg(R5, 0x00000000)
T2410 021:213.678 - 0.003ms returns 0
T2410 021:213.684 JLINK_WriteReg(R6, 0x00000000)
T2410 021:213.686 - 0.003ms returns 0
T2410 021:213.692 JLINK_WriteReg(R7, 0x00000000)
T2410 021:213.694 - 0.003ms returns 0
T2410 021:213.708 JLINK_WriteReg(R8, 0x00000000)
T2410 021:213.714 - 0.014ms returns 0
T2410 021:213.718 JLINK_WriteReg(R9, 0x20000160)
T2410 021:213.722 - 0.003ms returns 0
T2410 021:213.724 JLINK_WriteReg(R10, 0x00000000)
T2410 021:213.730 - 0.003ms returns 0
T2410 021:213.734 JLINK_WriteReg(R11, 0x00000000)
T2410 021:213.738 - 0.003ms returns 0
T2410 021:213.742 JLINK_WriteReg(R12, 0x00000000)
T2410 021:213.746 - 0.003ms returns 0
T2410 021:213.750 JLINK_WriteReg(R13 (SP), 0x20001000)
T2410 021:213.754 - 0.004ms returns 0
T2410 021:213.792 JLINK_WriteReg(R14, 0x20000001)
T2410 021:213.796 - 0.005ms returns 0
T2410 021:213.802 JLINK_WriteReg(R15 (PC), 0x2000002A)
T2410 021:213.806 - 0.004ms returns 0
T2410 021:213.812 JLINK_WriteReg(XPSR, 0x01000000)
T2410 021:213.814 - 0.004ms returns 0
T2410 021:213.820 JLINK_WriteReg(MSP, 0x20001000)
T2410 021:213.824 - 0.004ms returns 0
T2410 021:213.828 JLINK_WriteReg(PSP, 0x20001000)
T2410 021:213.832 - 0.003ms returns 0
T2410 021:213.836 JLINK_WriteReg(CFBP, 0x00000000)
T2410 021:213.840 - 0.003ms returns 0
T2410 021:213.846 JLINK_SetBPEx(Addr = 0x20000000, Type = 0xFFFFFFF2)
T2410 021:213.852   CPU_ReadMem(2 bytes @ 0x20000000)
T2410 021:214.028 - 0.183ms returns 0x00000001
T2410 021:214.036 JLINK_Go()
T2410 021:214.042   CPU_WriteMem(2 bytes @ 0x20000000)
T2410 021:214.236   CPU_ReadMem(4 bytes @ 0xE0001000)
T2410 021:214.494   CPU_WriteMem(4 bytes @ 0xE0002008)
T2410 021:214.500   CPU_WriteMem(4 bytes @ 0xE000200C)
T2410 021:214.506   CPU_WriteMem(4 bytes @ 0xE0002010)
T2410 021:214.512   CPU_WriteMem(4 bytes @ 0xE0002014)
T2410 021:214.516   CPU_WriteMem(4 bytes @ 0xE0002018)
T2410 021:214.522   CPU_WriteMem(4 bytes @ 0xE000201C)
T2410 021:215.260   CPU_WriteMem(4 bytes @ 0xE0001004)
T2410 021:218.098   Memory map 'after startup completion point' is active
T2410 021:218.110 - 4.073ms 
T2410 021:218.120 JLINK_IsHalted()
T2410 021:219.918   CPU_ReadMem(2 bytes @ 0x20000000)
T2410 021:220.110 - 1.989ms returns TRUE
T2410 021:220.138 JLINK_ReadReg(R15 (PC))
T2410 021:220.142 - 0.004ms returns 0x20000000
T2410 021:220.148 JLINK_ClrBPEx(BPHandle = 0x00000001)
T2410 021:220.152 - 0.004ms returns 0x00
T2410 021:220.156 JLINK_ReadReg(R0)
T2410 021:220.160 - 0.003ms returns 0x00000000
T2410 021:220.442 JLINK_HasError()
T2410 021:220.452 JLINK_WriteReg(R0, 0x08000000)
T2410 021:220.458 - 0.005ms returns 0
T2410 021:220.462 JLINK_WriteReg(R1, 0x00001000)
T2410 021:220.466 - 0.003ms returns 0
T2410 021:220.470 JLINK_WriteReg(R2, 0x000000FF)
T2410 021:220.474 - 0.003ms returns 0
T2410 021:220.478 JLINK_WriteReg(R3, 0x00000000)
T2410 021:220.482 - 0.003ms returns 0
T2410 021:220.486 JLINK_WriteReg(R4, 0x00000000)
T2410 021:220.490 - 0.003ms returns 0
T2410 021:220.494 JLINK_WriteReg(R5, 0x00000000)
T2410 021:220.498 - 0.003ms returns 0
T2410 021:220.542 JLINK_WriteReg(R6, 0x00000000)
T2410 021:220.548 - 0.005ms returns 0
T2410 021:220.552 JLINK_WriteReg(R7, 0x00000000)
T2410 021:220.556 - 0.003ms returns 0
T2410 021:220.560 JLINK_WriteReg(R8, 0x00000000)
T2410 021:220.564 - 0.003ms returns 0
T2410 021:220.568 JLINK_WriteReg(R9, 0x20000160)
T2410 021:220.572 - 0.003ms returns 0
T2410 021:220.576 JLINK_WriteReg(R10, 0x00000000)
T2410 021:220.580 - 0.003ms returns 0
T2410 021:220.584 JLINK_WriteReg(R11, 0x00000000)
T2410 021:220.588 - 0.003ms returns 0
T2410 021:220.592 JLINK_WriteReg(R12, 0x00000000)
T2410 021:220.596 - 0.003ms returns 0
T2410 021:220.600 JLINK_WriteReg(R13 (SP), 0x20001000)
T2410 021:220.604 - 0.004ms returns 0
T2410 021:220.608 JLINK_WriteReg(R14, 0x20000001)
T2410 021:220.612 - 0.003ms returns 0
T2410 021:220.616 JLINK_WriteReg(R15 (PC), 0x20000046)
T2410 021:220.620 - 0.004ms returns 0
T2410 021:220.624 JLINK_WriteReg(XPSR, 0x01000000)
T2410 021:220.628 - 0.003ms returns 0
T2410 021:220.632 JLINK_WriteReg(MSP, 0x20001000)
T2410 021:220.636 - 0.003ms returns 0
T2410 021:220.640 JLINK_WriteReg(PSP, 0x20001000)
T2410 021:220.644 - 0.003ms returns 0
T2410 021:220.648 JLINK_WriteReg(CFBP, 0x00000000)
T2410 021:220.652 - 0.003ms returns 0
T2410 021:220.658 JLINK_SetBPEx(Addr = 0x20000000, Type = 0xFFFFFFF2)
T2410 021:220.660 - 0.004ms returns 0x00000002
T2410 021:220.666 JLINK_Go()
T2410 021:220.674   CPU_ReadMem(4 bytes @ 0xE0001000)
T2410 021:222.600 - 1.934ms 
T2410 021:222.616 JLINK_IsHalted()
T2410 021:224.284   CPU_ReadMem(2 bytes @ 0x20000000)
T2410 021:224.610 - 1.993ms returns TRUE
T2410 021:224.614 JLINK_ReadReg(R15 (PC))
T2410 021:224.620 - 0.004ms returns 0x20000000
T2410 021:224.624 JLINK_ClrBPEx(BPHandle = 0x00000002)
T2410 021:224.628 - 0.004ms returns 0x00
T2410 021:224.632 JLINK_ReadReg(R0)
T2410 021:224.636 - 0.003ms returns 0x00000001
T2410 021:224.640 JLINK_HasError()
T2410 021:224.644 JLINK_WriteReg(R0, 0x08000000)
T2410 021:224.650 - 0.004ms returns 0
T2410 021:224.654 JLINK_WriteReg(R1, 0x00001000)
T2410 021:224.658 - 0.003ms returns 0
T2410 021:224.662 JLINK_WriteReg(R2, 0x000000FF)
T2410 021:224.666 - 0.003ms returns 0
T2410 021:224.668 JLINK_WriteReg(R3, 0x00000000)
T2410 021:224.674 - 0.004ms returns 0
T2410 021:224.678 JLINK_WriteReg(R4, 0x00000000)
T2410 021:224.682 - 0.003ms returns 0
T2410 021:224.686 JLINK_WriteReg(R5, 0x00000000)
T2410 021:224.690 - 0.003ms returns 0
T2410 021:224.692 JLINK_WriteReg(R6, 0x00000000)
T2410 021:224.698 - 0.003ms returns 0
T2410 021:224.700 JLINK_WriteReg(R7, 0x00000000)
T2410 021:224.706 - 0.003ms returns 0
T2410 021:224.708 JLINK_WriteReg(R8, 0x00000000)
T2410 021:224.714 - 0.003ms returns 0
T2410 021:224.716 JLINK_WriteReg(R9, 0x20000160)
T2410 021:224.720 - 0.003ms returns 0
T2410 021:224.724 JLINK_WriteReg(R10, 0x00000000)
T2410 021:224.728 - 0.003ms returns 0
T2410 021:224.732 JLINK_WriteReg(R11, 0x00000000)
T2410 021:224.736 - 0.003ms returns 0
T2410 021:224.740 JLINK_WriteReg(R12, 0x00000000)
T2410 021:224.744 - 0.003ms returns 0
T2410 021:224.748 JLINK_WriteReg(R13 (SP), 0x20001000)
T2410 021:224.752 - 0.003ms returns 0
T2410 021:224.756 JLINK_WriteReg(R14, 0x20000001)
T2410 021:224.760 - 0.003ms returns 0
T2410 021:224.764 JLINK_WriteReg(R15 (PC), 0x20000090)
T2410 021:224.768 - 0.003ms returns 0
T2410 021:224.772 JLINK_WriteReg(XPSR, 0x01000000)
T2410 021:224.776 - 0.004ms returns 0
T2410 021:224.780 JLINK_WriteReg(MSP, 0x20001000)
T2410 021:224.784 - 0.003ms returns 0
T2410 021:224.788 JLINK_WriteReg(PSP, 0x20001000)
T2410 021:224.792 - 0.003ms returns 0
T2410 021:224.796 JLINK_WriteReg(CFBP, 0x00000000)
T2410 021:224.800 - 0.003ms returns 0
T2410 021:224.804 JLINK_SetBPEx(Addr = 0x20000000, Type = 0xFFFFFFF2)
T2410 021:224.808 - 0.004ms returns 0x00000003
T2410 021:224.812 JLINK_Go()
T2410 021:224.820   CPU_ReadMem(4 bytes @ 0xE0001000)
T2410 021:226.566 - 1.754ms 
T2410 021:226.572 JLINK_IsHalted()
T2410 021:226.754 - 0.181ms returns FALSE
T2410 021:226.758 JLINK_HasError()
T2410 021:232.518 JLINK_IsHalted()
T2410 021:232.844 - 0.327ms returns FALSE
T2410 021:232.850 JLINK_HasError()
T2410 021:234.876 JLINK_IsHalted()
T2410 021:235.130 - 0.255ms returns FALSE
T2410 021:235.134 JLINK_HasError()
T2410 021:236.258 JLINK_IsHalted()
T2410 021:236.504 - 0.247ms returns FALSE
T2410 021:236.508 JLINK_HasError()
T2410 021:238.540 JLINK_IsHalted()
T2410 021:238.882 - 0.342ms returns FALSE
T2410 021:238.896 JLINK_HasError()
T2410 021:242.184 JLINK_IsHalted()
T2410 021:242.484 - 0.302ms returns FALSE
T2410 021:242.492 JLINK_HasError()
T2410 021:244.518 JLINK_IsHalted()
T2410 021:244.758 - 0.241ms returns FALSE
T2410 021:244.764 JLINK_HasError()
T2410 021:246.548 JLINK_IsHalted()
T2410 021:246.860 - 0.311ms returns FALSE
T2410 021:246.866 JLINK_HasError()
T2410 021:248.892 JLINK_IsHalted()
T2410 021:250.656   CPU_ReadMem(2 bytes @ 0x20000000)
T2410 021:250.884 - 1.991ms returns TRUE
T2410 021:250.892 JLINK_ReadReg(R15 (PC))
T2410 021:250.900 - 0.007ms returns 0x20000000
T2410 021:250.908 JLINK_ClrBPEx(BPHandle = 0x00000003)
T2410 021:250.914 - 0.006ms returns 0x00
T2410 021:250.920 JLINK_ReadReg(R0)
T2410 021:250.926 - 0.005ms returns 0x00000000
T2410 021:251.350 JLINK_HasError()
T2410 021:251.364 JLINK_WriteReg(R0, 0x08001000)
T2410 021:251.372 - 0.007ms returns 0
T2410 021:251.380 JLINK_WriteReg(R1, 0x00001000)
T2410 021:251.384 - 0.005ms returns 0
T2410 021:251.390 JLINK_WriteReg(R2, 0x000000FF)
T2410 021:251.396 - 0.005ms returns 0
T2410 021:251.402 JLINK_WriteReg(R3, 0x00000000)
T2410 021:251.406 - 0.005ms returns 0
T2410 021:251.412 JLINK_WriteReg(R4, 0x00000000)
T2410 021:251.418 - 0.005ms returns 0
T2410 021:251.424 JLINK_WriteReg(R5, 0x00000000)
T2410 021:251.430 - 0.005ms returns 0
T2410 021:251.436 JLINK_WriteReg(R6, 0x00000000)
T2410 021:251.442 - 0.005ms returns 0
T2410 021:251.446 JLINK_WriteReg(R7, 0x00000000)
T2410 021:251.452 - 0.005ms returns 0
T2410 021:251.460 JLINK_WriteReg(R8, 0x00000000)
T2410 021:251.464 - 0.005ms returns 0
T2410 021:251.470 JLINK_WriteReg(R9, 0x20000160)
T2410 021:251.476 - 0.005ms returns 0
T2410 021:251.482 JLINK_WriteReg(R10, 0x00000000)
T2410 021:251.486 - 0.005ms returns 0
T2410 021:251.492 JLINK_WriteReg(R11, 0x00000000)
T2410 021:251.500 - 0.005ms returns 0
T2410 021:251.506 JLINK_WriteReg(R12, 0x00000000)
T2410 021:251.510 - 0.005ms returns 0
T2410 021:251.516 JLINK_WriteReg(R13 (SP), 0x20001000)
T2410 021:251.524 - 0.006ms returns 0
T2410 021:251.530 JLINK_WriteReg(R14, 0x20000001)
T2410 021:251.534 - 0.005ms returns 0
T2410 021:251.540 JLINK_WriteReg(R15 (PC), 0x20000046)
T2410 021:251.548 - 0.005ms returns 0
T2410 021:251.554 JLINK_WriteReg(XPSR, 0x01000000)
T2410 021:251.558 - 0.005ms returns 0
T2410 021:251.564 JLINK_WriteReg(MSP, 0x20001000)
T2410 021:251.570 - 0.005ms returns 0
T2410 021:251.576 JLINK_WriteReg(PSP, 0x20001000)
T2410 021:251.580 - 0.005ms returns 0
T2410 021:251.588 JLINK_WriteReg(CFBP, 0x00000000)
T2410 021:251.594 - 0.005ms returns 0
T2410 021:251.600 JLINK_SetBPEx(Addr = 0x20000000, Type = 0xFFFFFFF2)
T2410 021:251.606 - 0.006ms returns 0x00000004
T2410 021:251.612 JLINK_Go()
T2410 021:251.630   CPU_ReadMem(4 bytes @ 0xE0001000)
T2410 021:253.372 - 1.759ms 
T2410 021:253.380 JLINK_IsHalted()
T2410 021:255.108   CPU_ReadMem(2 bytes @ 0x20000000)
T2410 021:255.364 - 1.984ms returns TRUE
T2410 021:255.374 JLINK_ReadReg(R15 (PC))
T2410 021:255.382 - 0.007ms returns 0x20000000
T2410 021:255.388 JLINK_ClrBPEx(BPHandle = 0x00000004)
T2410 021:255.396 - 0.006ms returns 0x00
T2410 021:255.402 JLINK_ReadReg(R0)
T2410 021:255.408 - 0.006ms returns 0x00000001
T2410 021:255.414 JLINK_HasError()
T2410 021:255.420 JLINK_WriteReg(R0, 0x08001000)
T2410 021:255.428 - 0.006ms returns 0
T2410 021:255.434 JLINK_WriteReg(R1, 0x00001000)
T2410 021:255.440 - 0.006ms returns 0
T2410 021:255.446 JLINK_WriteReg(R2, 0x000000FF)
T2410 021:255.452 - 0.005ms returns 0
T2410 021:255.460 JLINK_WriteReg(R3, 0x00000000)
T2410 021:255.466 - 0.005ms returns 0
T2410 021:255.476 JLINK_WriteReg(R4, 0x00000000)
T2410 021:255.484 - 0.007ms returns 0
T2410 021:255.490 JLINK_WriteReg(R5, 0x00000000)
T2410 021:255.494 - 0.005ms returns 0
T2410 021:255.500 JLINK_WriteReg(R6, 0x00000000)
T2410 021:255.508 - 0.005ms returns 0
T2410 021:255.514 JLINK_WriteReg(R7, 0x00000000)
T2410 021:255.520 - 0.005ms returns 0
T2410 021:255.526 JLINK_WriteReg(R8, 0x00000000)
T2410 021:255.532 - 0.005ms returns 0
T2410 021:255.538 JLINK_WriteReg(R9, 0x20000160)
T2410 021:255.544 - 0.005ms returns 0
T2410 021:255.550 JLINK_WriteReg(R10, 0x00000000)
T2410 021:255.556 - 0.006ms returns 0
T2410 021:255.564 JLINK_WriteReg(R11, 0x00000000)
T2410 021:255.568 - 0.005ms returns 0
T2410 021:255.574 JLINK_WriteReg(R12, 0x00000000)
T2410 021:255.580 - 0.005ms returns 0
T2410 021:255.588 JLINK_WriteReg(R13 (SP), 0x20001000)
T2410 021:255.594 - 0.005ms returns 0
T2410 021:255.600 JLINK_WriteReg(R14, 0x20000001)
T2410 021:255.604 - 0.005ms returns 0
T2410 021:255.612 JLINK_WriteReg(R15 (PC), 0x20000090)
T2410 021:255.618 - 0.005ms returns 0
T2410 021:255.622 JLINK_WriteReg(XPSR, 0x01000000)
T2410 021:255.628 - 0.005ms returns 0
T2410 021:255.636 JLINK_WriteReg(MSP, 0x20001000)
T2410 021:255.640 - 0.005ms returns 0
T2410 021:255.646 JLINK_WriteReg(PSP, 0x20001000)
T2410 021:255.652 - 0.005ms returns 0
T2410 021:255.658 JLINK_WriteReg(CFBP, 0x00000000)
T2410 021:255.662 - 0.005ms returns 0
T2410 021:255.670 JLINK_SetBPEx(Addr = 0x20000000, Type = 0xFFFFFFF2)
T2410 021:255.676 - 0.006ms returns 0x00000005
T2410 021:255.682 JLINK_Go()
T2410 021:255.692   CPU_ReadMem(4 bytes @ 0xE0001000)
T2410 021:257.550 - 1.868ms 
T2410 021:257.560 JLINK_IsHalted()
T2410 021:257.738 - 0.177ms returns FALSE
T2410 021:257.744 JLINK_HasError()
T2410 021:259.764 JLINK_IsHalted()
T2410 021:259.988 - 0.225ms returns FALSE
T2410 021:259.996 JLINK_HasError()
T2410 021:262.056 JLINK_IsHalted()
T2410 021:262.282 - 0.226ms returns FALSE
T2410 021:262.292 JLINK_HasError()
T2410 021:264.130 JLINK_IsHalted()
T2410 021:264.372 - 0.241ms returns FALSE
T2410 021:264.382 JLINK_HasError()
T2410 021:266.394 JLINK_IsHalted()
T2410 021:266.618 - 0.224ms returns FALSE
T2410 021:266.628 JLINK_HasError()
T2410 021:268.428 JLINK_IsHalted()
T2410 021:268.620 - 0.192ms returns FALSE
T2410 021:268.636 JLINK_HasError()
T2410 021:270.744 JLINK_IsHalted()
T2410 021:271.018 - 0.274ms returns FALSE
T2410 021:271.036 JLINK_HasError()
T2410 021:273.000 JLINK_IsHalted()
T2410 021:273.248 - 0.247ms returns FALSE
T2410 021:273.262 JLINK_HasError()
T2410 021:275.078 JLINK_IsHalted()
T2410 021:275.314 - 0.234ms returns FALSE
T2410 021:275.330 JLINK_HasError()
T2410 021:277.330 JLINK_IsHalted()
T2410 021:277.572 - 0.242ms returns FALSE
T2410 021:277.592 JLINK_HasError()
T2410 021:279.858 JLINK_IsHalted()
T2410 021:281.958   CPU_ReadMem(2 bytes @ 0x20000000)
T2410 021:282.284 - 2.426ms returns TRUE
T2410 021:282.316 JLINK_ReadReg(R15 (PC))
T2410 021:282.336 - 0.020ms returns 0x20000000
T2410 021:282.354 JLINK_ClrBPEx(BPHandle = 0x00000005)
T2410 021:282.372 - 0.017ms returns 0x00
T2410 021:282.388 JLINK_ReadReg(R0)
T2410 021:282.404 - 0.015ms returns 0x00000000
T2410 021:283.328 JLINK_HasError()
T2410 021:283.360 JLINK_WriteReg(R0, 0x08002000)
T2410 021:283.376 - 0.016ms returns 0
T2410 021:283.392 JLINK_WriteReg(R1, 0x00001000)
T2410 021:283.404 - 0.013ms returns 0
T2410 021:283.420 JLINK_WriteReg(R2, 0x000000FF)
T2410 021:283.432 - 0.012ms returns 0
T2410 021:283.446 JLINK_WriteReg(R3, 0x00000000)
T2410 021:283.460 - 0.013ms returns 0
T2410 021:283.476 JLINK_WriteReg(R4, 0x00000000)
T2410 021:283.486 - 0.012ms returns 0
T2410 021:283.500 JLINK_WriteReg(R5, 0x00000000)
T2410 021:283.512 - 0.012ms returns 0
T2410 021:283.526 JLINK_WriteReg(R6, 0x00000000)
T2410 021:283.538 - 0.011ms returns 0
T2410 021:283.552 JLINK_WriteReg(R7, 0x00000000)
T2410 021:283.564 - 0.011ms returns 0
T2410 021:283.576 JLINK_WriteReg(R8, 0x00000000)
T2410 021:283.588 - 0.011ms returns 0
T2410 021:283.602 JLINK_WriteReg(R9, 0x20000160)
T2410 021:283.620 - 0.018ms returns 0
T2410 021:283.636 JLINK_WriteReg(R10, 0x00000000)
T2410 021:283.650 - 0.012ms returns 0
T2410 021:283.662 JLINK_WriteReg(R11, 0x00000000)
T2410 021:283.674 - 0.011ms returns 0
T2410 021:283.688 JLINK_WriteReg(R12, 0x00000000)
T2410 021:283.700 - 0.011ms returns 0
T2410 021:283.714 JLINK_WriteReg(R13 (SP), 0x20001000)
T2410 021:283.726 - 0.013ms returns 0
T2410 021:283.740 JLINK_WriteReg(R14, 0x20000001)
T2410 021:283.752 - 0.012ms returns 0
T2410 021:283.764 JLINK_WriteReg(R15 (PC), 0x20000046)
T2410 021:283.778 - 0.012ms returns 0
T2410 021:283.792 JLINK_WriteReg(XPSR, 0x01000000)
T2410 021:283.804 - 0.014ms returns 0
T2410 021:283.820 JLINK_WriteReg(MSP, 0x20001000)
T2410 021:283.834 - 0.013ms returns 0
T2410 021:283.848 JLINK_WriteReg(PSP, 0x20001000)
T2410 021:283.860 - 0.012ms returns 0
T2410 021:283.876 JLINK_WriteReg(CFBP, 0x00000000)
T2410 021:283.888 - 0.012ms returns 0
T2410 021:283.904 JLINK_SetBPEx(Addr = 0x20000000, Type = 0xFFFFFFF2)
T2410 021:283.918 - 0.015ms returns 0x00000006
T2410 021:283.932 JLINK_Go()
T2410 021:283.962   CPU_ReadMem(4 bytes @ 0xE0001000)
T2410 021:285.962 - 2.028ms 
T2410 021:285.984 JLINK_IsHalted()
T2410 021:287.806   CPU_ReadMem(2 bytes @ 0x20000000)
T2410 021:288.052 - 2.066ms returns TRUE
T2410 021:288.072 JLINK_ReadReg(R15 (PC))
T2410 021:288.090 - 0.016ms returns 0x20000000
T2410 021:288.106 JLINK_ClrBPEx(BPHandle = 0x00000006)
T2410 021:288.120 - 0.014ms returns 0x00
T2410 021:288.136 JLINK_ReadReg(R0)
T2410 021:288.150 - 0.014ms returns 0x00000001
T2410 021:288.166 JLINK_HasError()
T2410 021:288.182 JLINK_WriteReg(R0, 0x08002000)
T2410 021:288.198 - 0.015ms returns 0
T2410 021:288.214 JLINK_WriteReg(R1, 0x00001000)
T2410 021:288.228 - 0.014ms returns 0
T2410 021:288.244 JLINK_WriteReg(R2, 0x000000FF)
T2410 021:288.258 - 0.014ms returns 0
T2410 021:288.274 JLINK_WriteReg(R3, 0x00000000)
T2410 021:288.288 - 0.013ms returns 0
T2410 021:288.302 JLINK_WriteReg(R4, 0x00000000)
T2410 021:288.316 - 0.013ms returns 0
T2410 021:288.332 JLINK_WriteReg(R5, 0x00000000)
T2410 021:288.346 - 0.013ms returns 0
T2410 021:288.362 JLINK_WriteReg(R6, 0x00000000)
T2410 021:288.374 - 0.013ms returns 0
T2410 021:288.390 JLINK_WriteReg(R7, 0x00000000)
T2410 021:288.404 - 0.014ms returns 0
T2410 021:288.420 JLINK_WriteReg(R8, 0x00000000)
T2410 021:288.432 - 0.013ms returns 0
T2410 021:288.448 JLINK_WriteReg(R9, 0x20000160)
T2410 021:288.462 - 0.013ms returns 0
T2410 021:288.476 JLINK_WriteReg(R10, 0x00000000)
T2410 021:288.492 - 0.014ms returns 0
T2410 021:288.508 JLINK_WriteReg(R11, 0x00000000)
T2410 021:288.520 - 0.013ms returns 0
T2410 021:288.536 JLINK_WriteReg(R12, 0x00000000)
T2410 021:288.550 - 0.014ms returns 0
T2410 021:288.564 JLINK_WriteReg(R13 (SP), 0x20001000)
T2410 021:288.578 - 0.013ms returns 0
T2410 021:288.592 JLINK_WriteReg(R14, 0x20000001)
T2410 021:288.604 - 0.012ms returns 0
T2410 021:288.620 JLINK_WriteReg(R15 (PC), 0x20000090)
T2410 021:288.632 - 0.013ms returns 0
T2410 021:288.648 JLINK_WriteReg(XPSR, 0x01000000)
T2410 021:288.660 - 0.013ms returns 0
T2410 021:288.676 JLINK_WriteReg(MSP, 0x20001000)
T2410 021:288.688 - 0.013ms returns 0
T2410 021:288.702 JLINK_WriteReg(PSP, 0x20001000)
T2410 021:288.716 - 0.012ms returns 0
T2410 021:288.730 JLINK_WriteReg(CFBP, 0x00000000)
T2410 021:288.742 - 0.012ms returns 0
T2410 021:288.756 JLINK_SetBPEx(Addr = 0x20000000, Type = 0xFFFFFFF2)
T2410 021:288.772 - 0.014ms returns 0x00000007
T2410 021:288.786 JLINK_Go()
T2410 021:288.808   CPU_ReadMem(4 bytes @ 0xE0001000)
T2410 021:290.690 - 1.904ms 
T2410 021:290.708 JLINK_IsHalted()
T2410 021:291.040 - 0.331ms returns FALSE
T2410 021:291.056 JLINK_HasError()
T2410 021:293.004 JLINK_IsHalted()
T2410 021:293.272 - 0.267ms returns FALSE
T2410 021:293.288 JLINK_HasError()
T2410 021:295.080 JLINK_IsHalted()
T2410 021:295.378 - 0.298ms returns FALSE
T2410 021:295.402 JLINK_HasError()
T2410 021:297.316 JLINK_IsHalted()
T2410 021:297.988 - 0.672ms returns FALSE
T2410 021:298.144 JLINK_HasError()
T2410 021:299.802 JLINK_IsHalted()
T2410 021:300.112 - 0.310ms returns FALSE
T2410 021:300.136 JLINK_HasError()
T2410 021:301.962 JLINK_IsHalted()
T2410 021:302.292 - 0.328ms returns FALSE
T2410 021:302.334 JLINK_HasError()
T2410 021:303.468 JLINK_IsHalted()
T2410 021:303.750 - 0.281ms returns FALSE
T2410 021:303.764 JLINK_HasError()
T2410 021:305.536 JLINK_IsHalted()
T2410 021:305.814 - 0.279ms returns FALSE
T2410 021:305.836 JLINK_HasError()
T2410 021:307.830 JLINK_IsHalted()
T2410 021:308.070 - 0.240ms returns FALSE
T2410 021:308.088 JLINK_HasError()
T2410 021:309.848 JLINK_IsHalted()
T2410 021:310.070 - 0.223ms returns FALSE
T2410 021:310.090 JLINK_HasError()
T2410 021:312.070 JLINK_IsHalted()
T2410 021:312.378 - 0.308ms returns FALSE
T2410 021:312.396 JLINK_HasError()
T2410 021:314.384 JLINK_IsHalted()
T2410 021:316.186   CPU_ReadMem(2 bytes @ 0x20000000)
T2410 021:316.404 - 2.020ms returns TRUE
T2410 021:316.426 JLINK_ReadReg(R15 (PC))
T2410 021:316.444 - 0.017ms returns 0x20000000
T2410 021:316.460 JLINK_ClrBPEx(BPHandle = 0x00000007)
T2410 021:316.476 - 0.015ms returns 0x00
T2410 021:316.492 JLINK_ReadReg(R0)
T2410 021:316.506 - 0.014ms returns 0x00000000
T2410 021:317.524 JLINK_HasError()
T2410 021:317.562 JLINK_WriteReg(R0, 0x08003000)
T2410 021:317.612 - 0.052ms returns 0
T2410 021:317.632 JLINK_WriteReg(R1, 0x00001000)
T2410 021:317.648 - 0.016ms returns 0
T2410 021:317.666 JLINK_WriteReg(R2, 0x000000FF)
T2410 021:317.682 - 0.015ms returns 0
T2410 021:317.698 JLINK_WriteReg(R3, 0x00000000)
T2410 021:317.714 - 0.015ms returns 0
T2410 021:317.730 JLINK_WriteReg(R4, 0x00000000)
T2410 021:317.744 - 0.015ms returns 0
T2410 021:317.762 JLINK_WriteReg(R5, 0x00000000)
T2410 021:317.776 - 0.015ms returns 0
T2410 021:317.794 JLINK_WriteReg(R6, 0x00000000)
T2410 021:317.810 - 0.014ms returns 0
T2410 021:317.826 JLINK_WriteReg(R7, 0x00000000)
T2410 021:317.842 - 0.016ms returns 0
T2410 021:317.860 JLINK_WriteReg(R8, 0x00000000)
T2410 021:317.874 - 0.015ms returns 0
T2410 021:317.892 JLINK_WriteReg(R9, 0x20000160)
T2410 021:317.906 - 0.015ms returns 0
T2410 021:317.924 JLINK_WriteReg(R10, 0x00000000)
T2410 021:317.938 - 0.015ms returns 0
T2410 021:317.956 JLINK_WriteReg(R11, 0x00000000)
T2410 021:317.970 - 0.014ms returns 0
T2410 021:317.986 JLINK_WriteReg(R12, 0x00000000)
T2410 021:318.002 - 0.014ms returns 0
T2410 021:318.018 JLINK_WriteReg(R13 (SP), 0x20001000)
T2410 021:318.034 - 0.016ms returns 0
T2410 021:318.052 JLINK_WriteReg(R14, 0x20000001)
T2410 021:318.066 - 0.015ms returns 0
T2410 021:318.084 JLINK_WriteReg(R15 (PC), 0x20000046)
T2410 021:318.098 - 0.015ms returns 0
T2410 021:318.116 JLINK_WriteReg(XPSR, 0x01000000)
T2410 021:318.130 - 0.015ms returns 0
T2410 021:318.156 JLINK_WriteReg(MSP, 0x20001000)
T2410 021:318.172 - 0.014ms returns 0
T2410 021:318.188 JLINK_WriteReg(PSP, 0x20001000)
T2410 021:318.202 - 0.014ms returns 0
T2410 021:318.220 JLINK_WriteReg(CFBP, 0x00000000)
T2410 021:318.236 - 0.014ms returns 0
T2410 021:318.252 JLINK_SetBPEx(Addr = 0x20000000, Type = 0xFFFFFFF2)
T2410 021:318.272 - 0.019ms returns 0x00000008
T2410 021:318.288 JLINK_Go()
T2410 021:318.322   CPU_ReadMem(4 bytes @ 0xE0001000)
T2410 021:320.236 - 1.948ms 
T2410 021:320.258 JLINK_IsHalted()
T2410 021:322.052   CPU_ReadMem(2 bytes @ 0x20000000)
T2410 021:322.294 - 2.035ms returns TRUE
T2410 021:322.318 JLINK_ReadReg(R15 (PC))
T2410 021:322.332 - 0.014ms returns 0x20000000
T2410 021:322.396 JLINK_ClrBPEx(BPHandle = 0x00000008)
T2410 021:322.410 - 0.013ms returns 0x00
T2410 021:322.422 JLINK_ReadReg(R0)
T2410 021:322.436 - 0.012ms returns 0x00000001
T2410 021:322.450 JLINK_HasError()
T2410 021:322.464 JLINK_WriteReg(R0, 0x08003000)
T2410 021:322.476 - 0.012ms returns 0
T2410 021:322.490 JLINK_WriteReg(R1, 0x00001000)
T2410 021:322.500 - 0.011ms returns 0
T2410 021:322.514 JLINK_WriteReg(R2, 0x000000FF)
T2410 021:322.526 - 0.011ms returns 0
T2410 021:322.540 JLINK_WriteReg(R3, 0x00000000)
T2410 021:322.558 - 0.019ms returns 0
T2410 021:322.574 JLINK_WriteReg(R4, 0x00000000)
T2410 021:322.586 - 0.011ms returns 0
T2410 021:322.598 JLINK_WriteReg(R5, 0x00000000)
T2410 021:322.610 - 0.011ms returns 0
T2410 021:322.622 JLINK_WriteReg(R6, 0x00000000)
T2410 021:322.634 - 0.011ms returns 0
T2410 021:322.646 JLINK_WriteReg(R7, 0x00000000)
T2410 021:322.658 - 0.011ms returns 0
T2410 021:322.668 JLINK_WriteReg(R8, 0x00000000)
T2410 021:322.680 - 0.011ms returns 0
T2410 021:322.692 JLINK_WriteReg(R9, 0x20000160)
T2410 021:322.704 - 0.011ms returns 0
T2410 021:322.716 JLINK_WriteReg(R10, 0x00000000)
T2410 021:322.728 - 0.011ms returns 0
T2410 021:322.740 JLINK_WriteReg(R11, 0x00000000)
T2410 021:322.752 - 0.011ms returns 0
T2410 021:322.764 JLINK_WriteReg(R12, 0x00000000)
T2410 021:322.776 - 0.011ms returns 0
T2410 021:322.788 JLINK_WriteReg(R13 (SP), 0x20001000)
T2410 021:322.800 - 0.011ms returns 0
T2410 021:322.812 JLINK_WriteReg(R14, 0x20000001)
T2410 021:322.822 - 0.011ms returns 0
T2410 021:322.836 JLINK_WriteReg(R15 (PC), 0x20000090)
T2410 021:322.846 - 0.011ms returns 0
T2410 021:322.860 JLINK_WriteReg(XPSR, 0x01000000)
T2410 021:322.870 - 0.011ms returns 0
T2410 021:322.884 JLINK_WriteReg(MSP, 0x20001000)
T2410 021:322.894 - 0.011ms returns 0
T2410 021:322.908 JLINK_WriteReg(PSP, 0x20001000)
T2410 021:322.918 - 0.011ms returns 0
T2410 021:322.932 JLINK_WriteReg(CFBP, 0x00000000)
T2410 021:322.942 - 0.011ms returns 0
T2410 021:322.956 JLINK_SetBPEx(Addr = 0x20000000, Type = 0xFFFFFFF2)
T2410 021:322.968 - 0.012ms returns 0x00000009
T2410 021:322.980 JLINK_Go()
T2410 021:322.998   CPU_ReadMem(4 bytes @ 0xE0001000)
T2410 021:324.940 - 1.959ms 
T2410 021:324.960 JLINK_IsHalted()
T2410 021:325.172 - 0.209ms returns FALSE
T2410 021:325.188 JLINK_HasError()
T2410 021:326.540 JLINK_IsHalted()
T2410 021:326.772 - 0.233ms returns FALSE
T2410 021:326.790 JLINK_HasError()
T2410 021:328.590 JLINK_IsHalted()
T2410 021:328.950 - 0.360ms returns FALSE
T2410 021:328.972 JLINK_HasError()
T2410 021:330.668 JLINK_IsHalted()
T2410 021:331.096 - 0.425ms returns FALSE
T2410 021:331.350 JLINK_HasError()
T2410 021:333.192 JLINK_IsHalted()
T2410 021:333.508 - 0.317ms returns FALSE
T2410 021:333.530 JLINK_HasError()
T2410 021:336.724 JLINK_IsHalted()
T2410 021:337.024 - 0.300ms returns FALSE
T2410 021:337.036 JLINK_HasError()
T2410 021:338.786 JLINK_IsHalted()
T2410 021:339.016 - 0.231ms returns FALSE
T2410 021:339.030 JLINK_HasError()
T2410 021:340.836 JLINK_IsHalted()
T2410 021:341.120 - 0.284ms returns FALSE
T2410 021:341.136 JLINK_HasError()
T2410 021:342.916 JLINK_IsHalted()
T2410 021:343.166 - 0.249ms returns FALSE
T2410 021:343.182 JLINK_HasError()
T2410 021:345.020 JLINK_IsHalted()
T2410 021:345.294 - 0.276ms returns FALSE
T2410 021:345.316 JLINK_HasError()
T2410 021:347.146 JLINK_IsHalted()
T2410 021:349.062   CPU_ReadMem(2 bytes @ 0x20000000)
T2410 021:349.334 - 2.189ms returns TRUE
T2410 021:349.372 JLINK_ReadReg(R15 (PC))
T2410 021:349.392 - 0.020ms returns 0x20000000
T2410 021:349.472 JLINK_ClrBPEx(BPHandle = 0x00000009)
T2410 021:349.492 - 0.018ms returns 0x00
T2410 021:349.510 JLINK_ReadReg(R0)
T2410 021:349.528 - 0.016ms returns 0x00000000
T2410 021:350.550 JLINK_HasError()
T2410 021:350.604 JLINK_WriteReg(R0, 0x00000001)
T2410 021:350.622 - 0.019ms returns 0
T2410 021:350.640 JLINK_WriteReg(R1, 0x00001000)
T2410 021:350.654 - 0.014ms returns 0
T2410 021:350.670 JLINK_WriteReg(R2, 0x000000FF)
T2410 021:350.684 - 0.014ms returns 0
T2410 021:350.700 JLINK_WriteReg(R3, 0x00000000)
T2410 021:350.716 - 0.014ms returns 0
T2410 021:350.730 JLINK_WriteReg(R4, 0x00000000)
T2410 021:350.744 - 0.014ms returns 0
T2410 021:350.762 JLINK_WriteReg(R5, 0x00000000)
T2410 021:350.776 - 0.015ms returns 0
T2410 021:350.794 JLINK_WriteReg(R6, 0x00000000)
T2410 021:350.810 - 0.015ms returns 0
T2410 021:350.826 JLINK_WriteReg(R7, 0x00000000)
T2410 021:350.840 - 0.014ms returns 0
T2410 021:350.858 JLINK_WriteReg(R8, 0x00000000)
T2410 021:350.872 - 0.014ms returns 0
T2410 021:350.900 JLINK_WriteReg(R9, 0x20000160)
T2410 021:350.916 - 0.014ms returns 0
T2410 021:350.932 JLINK_WriteReg(R10, 0x00000000)
T2410 021:350.948 - 0.014ms returns 0
T2410 021:350.964 JLINK_WriteReg(R11, 0x00000000)
T2410 021:350.980 - 0.014ms returns 0
T2410 021:350.996 JLINK_WriteReg(R12, 0x00000000)
T2410 021:351.012 - 0.015ms returns 0
T2410 021:351.028 JLINK_WriteReg(R13 (SP), 0x20001000)
T2410 021:351.044 - 0.016ms returns 0
T2410 021:351.062 JLINK_WriteReg(R14, 0x20000001)
T2410 021:351.078 - 0.015ms returns 0
T2410 021:351.094 JLINK_WriteReg(R15 (PC), 0x20000038)
T2410 021:351.108 - 0.014ms returns 0
T2410 021:351.126 JLINK_WriteReg(XPSR, 0x01000000)
T2410 021:351.142 - 0.015ms returns 0
T2410 021:351.158 JLINK_WriteReg(MSP, 0x20001000)
T2410 021:351.172 - 0.014ms returns 0
T2410 021:351.190 JLINK_WriteReg(PSP, 0x20001000)
T2410 021:351.204 - 0.014ms returns 0
T2410 021:351.222 JLINK_WriteReg(CFBP, 0x00000000)
T2410 021:351.236 - 0.014ms returns 0
T2410 021:351.256 JLINK_SetBPEx(Addr = 0x20000000, Type = 0xFFFFFFF2)
T2410 021:351.274 - 0.018ms returns 0x0000000A
T2410 021:351.290 JLINK_Go()
T2410 021:351.324   CPU_ReadMem(4 bytes @ 0xE0001000)
T2410 021:353.316 - 2.024ms 
T2410 021:353.340 JLINK_IsHalted()
T2410 021:355.064   CPU_ReadMem(2 bytes @ 0x20000000)
T2410 021:355.324 - 1.984ms returns TRUE
T2410 021:355.350 JLINK_ReadReg(R15 (PC))
T2410 021:355.368 - 0.018ms returns 0x20000000
T2410 021:355.386 JLINK_ClrBPEx(BPHandle = 0x0000000A)
T2410 021:355.400 - 0.014ms returns 0x00
T2410 021:355.416 JLINK_ReadReg(R0)
T2410 021:355.430 - 0.014ms returns 0x00000000
T2410 021:416.462 JLINK_WriteMem(0x20000000, 0x164 Bytes, ...)
T2410 021:416.482   Data:  00 BE 0A E0 0D 78 2D 06 68 40 08 24 40 00 00 D3 ...
T2410 021:416.508   CPU_WriteMem(356 bytes @ 0x20000000)
T2410 021:417.804 - 1.338ms returns 0x164
T2410 021:417.874 JLINK_HasError()
T2410 021:417.884 JLINK_WriteReg(R0, 0x08000000)
T2410 021:417.898 - 0.011ms returns 0
T2410 021:417.906 JLINK_WriteReg(R1, 0x01E84800)
T2410 021:417.914 - 0.007ms returns 0
T2410 021:417.922 JLINK_WriteReg(R2, 0x00000002)
T2410 021:417.930 - 0.007ms returns 0
T2410 021:417.938 JLINK_WriteReg(R3, 0x00000000)
T2410 021:417.946 - 0.007ms returns 0
T2410 021:417.954 JLINK_WriteReg(R4, 0x00000000)
T2410 021:417.962 - 0.007ms returns 0
T2410 021:417.970 JLINK_WriteReg(R5, 0x00000000)
T2410 021:417.976 - 0.007ms returns 0
T2410 021:417.986 JLINK_WriteReg(R6, 0x00000000)
T2410 021:417.992 - 0.007ms returns 0
T2410 021:418.000 JLINK_WriteReg(R7, 0x00000000)
T2410 021:418.008 - 0.007ms returns 0
T2410 021:418.018 JLINK_WriteReg(R8, 0x00000000)
T2410 021:418.024 - 0.007ms returns 0
T2410 021:418.032 JLINK_WriteReg(R9, 0x20000160)
T2410 021:418.040 - 0.007ms returns 0
T2410 021:418.048 JLINK_WriteReg(R10, 0x00000000)
T2410 021:418.056 - 0.007ms returns 0
T2410 021:418.064 JLINK_WriteReg(R11, 0x00000000)
T2410 021:418.072 - 0.007ms returns 0
T2410 021:418.080 JLINK_WriteReg(R12, 0x00000000)
T2410 021:418.088 - 0.007ms returns 0
T2410 021:418.096 JLINK_WriteReg(R13 (SP), 0x20001000)
T2410 021:418.104 - 0.008ms returns 0
T2410 021:418.112 JLINK_WriteReg(R14, 0x20000001)
T2410 021:418.120 - 0.007ms returns 0
T2410 021:418.128 JLINK_WriteReg(R15 (PC), 0x2000002A)
T2410 021:418.136 - 0.007ms returns 0
T2410 021:418.144 JLINK_WriteReg(XPSR, 0x01000000)
T2410 021:418.152 - 0.007ms returns 0
T2410 021:418.160 JLINK_WriteReg(MSP, 0x20001000)
T2410 021:418.168 - 0.007ms returns 0
T2410 021:418.176 JLINK_WriteReg(PSP, 0x20001000)
T2410 021:418.182 - 0.007ms returns 0
T2410 021:418.192 JLINK_WriteReg(CFBP, 0x00000000)
T2410 021:418.198 - 0.007ms returns 0
T2410 021:418.208 JLINK_SetBPEx(Addr = 0x20000000, Type = 0xFFFFFFF2)
T2410 021:418.224   CPU_ReadMem(2 bytes @ 0x20000000)
T2410 021:418.460 - 0.253ms returns 0x0000000B
T2410 021:418.472 JLINK_Go()
T2410 021:418.484   CPU_WriteMem(2 bytes @ 0x20000000)
T2410 021:418.686   CPU_ReadMem(4 bytes @ 0xE0001000)
T2410 021:420.452 - 1.979ms 
T2410 021:420.464 JLINK_IsHalted()
T2410 021:422.332   CPU_ReadMem(2 bytes @ 0x20000000)
T2410 021:422.516 - 2.050ms returns TRUE
T2410 021:422.524 JLINK_ReadReg(R15 (PC))
T2410 021:422.532 - 0.008ms returns 0x20000000
T2410 021:422.540 JLINK_ClrBPEx(BPHandle = 0x0000000B)
T2410 021:422.548 - 0.007ms returns 0x00
T2410 021:422.556 JLINK_ReadReg(R0)
T2410 021:422.564 - 0.007ms returns 0x00000000
T2410 021:422.870 JLINK_WriteMem(0x20000164, 0x29C Bytes, ...)
T2410 021:422.884   Data:  48 04 00 20 51 01 00 08 C1 27 00 08 F1 1D 00 08 ...
T2410 021:422.906   CPU_WriteMem(668 bytes @ 0x20000164)
T2410 021:425.040 - 2.170ms returns 0x29C
T2410 021:425.060 JLINK_WriteMem(0x20000400, 0x164 Bytes, ...)
T2410 021:425.068   Data:  8B B0 0A 46 03 46 0A 90 09 91 00 20 08 90 05 92 ...
T2410 021:425.088   CPU_WriteMem(356 bytes @ 0x20000400)
T2410 021:426.396 - 1.336ms returns 0x164
T2410 021:426.428 JLINK_HasError()
T2410 021:426.478 JLINK_WriteReg(R0, 0x08000000)
T2410 021:426.490 - 0.011ms returns 0
T2410 021:426.500 JLINK_WriteReg(R1, 0x00000400)
T2410 021:426.510 - 0.010ms returns 0
T2410 021:426.522 JLINK_WriteReg(R2, 0x20000164)
T2410 021:426.532 - 0.009ms returns 0
T2410 021:426.542 JLINK_WriteReg(R3, 0x00000000)
T2410 021:426.550 - 0.009ms returns 0
T2410 021:426.562 JLINK_WriteReg(R4, 0x00000000)
T2410 021:426.572 - 0.009ms returns 0
T2410 021:426.582 JLINK_WriteReg(R5, 0x00000000)
T2410 021:426.590 - 0.009ms returns 0
T2410 021:426.602 JLINK_WriteReg(R6, 0x00000000)
T2410 021:426.612 - 0.009ms returns 0
T2410 021:426.620 JLINK_WriteReg(R7, 0x00000000)
T2410 021:426.630 - 0.009ms returns 0
T2410 021:426.642 JLINK_WriteReg(R8, 0x00000000)
T2410 021:426.652 - 0.009ms returns 0
T2410 021:426.660 JLINK_WriteReg(R9, 0x20000160)
T2410 021:426.670 - 0.009ms returns 0
T2410 021:426.682 JLINK_WriteReg(R10, 0x00000000)
T2410 021:426.692 - 0.009ms returns 0
T2410 021:426.700 JLINK_WriteReg(R11, 0x00000000)
T2410 021:426.710 - 0.009ms returns 0
T2410 021:426.722 JLINK_WriteReg(R12, 0x00000000)
T2410 021:426.732 - 0.009ms returns 0
T2410 021:426.740 JLINK_WriteReg(R13 (SP), 0x20001000)
T2410 021:426.752 - 0.010ms returns 0
T2410 021:426.762 JLINK_WriteReg(R14, 0x20000001)
T2410 021:426.772 - 0.009ms returns 0
T2410 021:426.782 JLINK_WriteReg(R15 (PC), 0x200000E8)
T2410 021:426.792 - 0.009ms returns 0
T2410 021:426.804 JLINK_WriteReg(XPSR, 0x01000000)
T2410 021:426.812 - 0.009ms returns 0
T2410 021:426.822 JLINK_WriteReg(MSP, 0x20001000)
T2410 021:426.832 - 0.009ms returns 0
T2410 021:426.844 JLINK_WriteReg(PSP, 0x20001000)
T2410 021:426.852 - 0.009ms returns 0
T2410 021:426.862 JLINK_WriteReg(CFBP, 0x00000000)
T2410 021:426.872 - 0.009ms returns 0
T2410 021:426.884 JLINK_SetBPEx(Addr = 0x20000000, Type = 0xFFFFFFF2)
T2410 021:426.894 - 0.011ms returns 0x0000000C
T2410 021:426.904 JLINK_Go()
T2410 021:426.922   CPU_ReadMem(4 bytes @ 0xE0001000)
T2410 021:428.730 - 1.825ms 
T2410 021:428.744 JLINK_IsHalted()
T2410 021:428.996 - 0.251ms returns FALSE
T2410 021:429.010 JLINK_HasError()
T2410 021:434.122 JLINK_IsHalted()
T2410 021:434.394 - 0.271ms returns FALSE
T2410 021:434.406 JLINK_HasError()
T2410 021:436.418 JLINK_IsHalted()
T2410 021:436.642 - 0.223ms returns FALSE
T2410 021:436.654 JLINK_HasError()
T2410 021:437.926 JLINK_IsHalted()
T2410 021:438.142 - 0.216ms returns FALSE
T2410 021:438.156 JLINK_HasError()
T2410 021:439.660 JLINK_IsHalted()
T2410 021:439.892 - 0.232ms returns FALSE
T2410 021:439.908 JLINK_HasError()
T2410 021:441.730 JLINK_IsHalted()
T2410 021:443.506   CPU_ReadMem(2 bytes @ 0x20000000)
T2410 021:443.764 - 2.032ms returns TRUE
T2410 021:443.806 JLINK_ReadReg(R15 (PC))
T2410 021:443.824 - 0.017ms returns 0x20000000
T2410 021:443.838 JLINK_ClrBPEx(BPHandle = 0x0000000C)
T2410 021:443.856 - 0.017ms returns 0x00
T2410 021:443.870 JLINK_ReadReg(R0)
T2410 021:443.884 - 0.012ms returns 0x00000000
T2410 021:445.546 JLINK_WriteMem(0x20000164, 0x29C Bytes, ...)
T2410 021:445.574   Data:  00 00 06 90 09 98 40 68 00 F0 03 00 08 99 49 00 ...
T2410 021:445.604   CPU_WriteMem(668 bytes @ 0x20000164)
T2410 021:447.796 - 2.246ms returns 0x29C
T2410 021:447.834 JLINK_WriteMem(0x20000400, 0x164 Bytes, ...)
T2410 021:447.846   Data:  00 00 01 68 41 F4 80 71 01 60 03 20 00 F0 8A F8 ...
T2410 021:447.874   CPU_WriteMem(356 bytes @ 0x20000400)
T2410 021:449.148 - 1.310ms returns 0x164
T2410 021:449.174 JLINK_HasError()
T2410 021:449.190 JLINK_WriteReg(R0, 0x08000400)
T2410 021:449.206 - 0.015ms returns 0
T2410 021:449.220 JLINK_WriteReg(R1, 0x00000400)
T2410 021:449.230 - 0.011ms returns 0
T2410 021:449.244 JLINK_WriteReg(R2, 0x20000164)
T2410 021:449.254 - 0.011ms returns 0
T2410 021:449.268 JLINK_WriteReg(R3, 0x00000000)
T2410 021:449.278 - 0.011ms returns 0
T2410 021:449.290 JLINK_WriteReg(R4, 0x00000000)
T2410 021:449.300 - 0.011ms returns 0
T2410 021:449.314 JLINK_WriteReg(R5, 0x00000000)
T2410 021:449.324 - 0.011ms returns 0
T2410 021:449.338 JLINK_WriteReg(R6, 0x00000000)
T2410 021:449.348 - 0.010ms returns 0
T2410 021:449.360 JLINK_WriteReg(R7, 0x00000000)
T2410 021:449.372 - 0.011ms returns 0
T2410 021:449.384 JLINK_WriteReg(R8, 0x00000000)
T2410 021:449.396 - 0.012ms returns 0
T2410 021:449.408 JLINK_WriteReg(R9, 0x20000160)
T2410 021:449.420 - 0.011ms returns 0
T2410 021:449.432 JLINK_WriteReg(R10, 0x00000000)
T2410 021:449.444 - 0.011ms returns 0
T2410 021:449.456 JLINK_WriteReg(R11, 0x00000000)
T2410 021:449.468 - 0.011ms returns 0
T2410 021:449.480 JLINK_WriteReg(R12, 0x00000000)
T2410 021:449.492 - 0.011ms returns 0
T2410 021:449.504 JLINK_WriteReg(R13 (SP), 0x20001000)
T2410 021:449.516 - 0.012ms returns 0
T2410 021:449.528 JLINK_WriteReg(R14, 0x20000001)
T2410 021:449.540 - 0.011ms returns 0
T2410 021:449.552 JLINK_WriteReg(R15 (PC), 0x200000E8)
T2410 021:449.564 - 0.011ms returns 0
T2410 021:449.576 JLINK_WriteReg(XPSR, 0x01000000)
T2410 021:449.588 - 0.011ms returns 0
